vi	V(vgs)	V(n002)	Id(M1)
Step Information: Vdd=0  (Step: 1/16)
0.000000000000000e+00	0.000000e+00	0.000000e+00	6.499139e-11
2.000000000000000e+00	0.000000e+00	2.000000e+00	0.000000e+00
4.000000000000000e+00	0.000000e+00	4.000000e+00	0.000000e+00
6.000000000000000e+00	-2.323048e-22	6.000000e+00	-4.942053e-29
8.000000000000000e+00	-1.526181e-31	8.000000e+00	5.029609e-32
1.000000000000000e+01	7.585393e-32	1.000000e+01	-2.514804e-32
1.200000000000000e+01	1.971753e-40	1.200000e+01	-6.561300e-41
1.400000000000000e+01	-4.909589e-41	1.400000e+01	1.637838e-41
1.600000000000000e+01	-0.000000e+00	1.600000e+01	0.000000e+00
1.800000000000000e+01	0.000000e+00	1.800000e+01	-0.000000e+00
2.000000000000000e+01	0.000000e+00	2.000000e+01	-0.000000e+00
2.200000000000000e+01	-0.000000e+00	2.200000e+01	0.000000e+00
2.400000000000000e+01	-0.000000e+00	2.400000e+01	0.000000e+00
2.600000000000000e+01	0.000000e+00	2.600000e+01	-0.000000e+00
2.800000000000000e+01	0.000000e+00	2.800000e+01	-0.000000e+00
3.000000000000000e+01	-0.000000e+00	3.000000e+01	0.000000e+00
Step Information: Vdd=2  (Step: 2/16)
0.000000000000000e+00	2.000000e+00	0.000000e+00	4.800076e-12
2.000000000000000e+00	1.503788e+00	2.000000e+00	4.963108e-02
4.000000000000000e+00	6.367795e-01	4.000000e+00	1.363219e-01
6.000000000000000e+00	6.151289e-01	6.000000e+00	1.384186e-01
8.000000000000000e+00	6.075254e-01	8.000000e+00	1.392475e-01
1.000000000000000e+01	6.036289e-01	1.000000e+01	1.396268e-01
1.200000000000000e+01	6.012622e-01	1.200000e+01	1.398720e-01
1.400000000000000e+01	5.996709e-01	1.400000e+01	1.400325e-01
1.600000000000000e+01	5.985278e-01	1.600000e+01	1.401471e-01
1.800000000000000e+01	5.976667e-01	1.800000e+01	1.402333e-01
2.000000000000000e+01	5.969949e-01	2.000000e+01	1.403005e-01
2.200000000000000e+01	5.964561e-01	2.200000e+01	1.403544e-01
2.400000000000000e+01	5.960143e-01	2.400000e+01	1.403986e-01
2.600000000000000e+01	5.956454e-01	2.600000e+01	1.404355e-01
2.800000000000000e+01	5.953329e-01	2.800000e+01	1.404667e-01
3.000000000000000e+01	5.950647e-01	3.000000e+01	1.404935e-01
Step Information: Vdd=4  (Step: 3/16)
0.000000000000000e+00	4.000000e+00	0.000000e+00	6.799809e-12
2.000000000000000e+00	3.503788e+00	2.000000e+00	4.963108e-02
4.000000000000000e+00	1.287040e+00	4.000000e+00	2.712649e-01
6.000000000000000e+00	1.233490e+00	6.000000e+00	2.766509e-01
8.000000000000000e+00	1.216463e+00	8.000000e+00	2.783537e-01
1.000000000000000e+01	1.208046e+00	1.000000e+01	2.791396e-01
1.200000000000000e+01	1.203029e+00	1.200000e+01	2.796884e-01
1.400000000000000e+01	1.199692e+00	1.400000e+01	2.800286e-01
1.600000000000000e+01	1.197313e+00	1.600000e+01	2.802680e-01
1.800000000000000e+01	1.195531e+00	1.800000e+01	2.804467e-01
2.000000000000000e+01	1.194145e+00	2.000000e+01	2.805853e-01
2.200000000000000e+01	1.193038e+00	2.200000e+01	2.806961e-01
2.400000000000000e+01	1.192133e+00	2.400000e+01	2.807867e-01
2.600000000000000e+01	1.191378e+00	2.600000e+01	2.808622e-01
2.800000000000000e+01	1.190740e+00	2.800000e+01	2.809260e-01
3.000000000000000e+01	1.190194e+00	3.000000e+01	2.809806e-01
Step Information: Vdd=6  (Step: 4/16)
0.000000000000000e+00	6.000000e+00	0.000000e+00	8.799839e-12
2.000000000000000e+00	5.503788e+00	2.000000e+00	4.963108e-02
4.000000000000000e+00	1.959229e+00	4.000000e+00	4.040643e-01
6.000000000000000e+00	1.855795e+00	6.000000e+00	4.144127e-01
8.000000000000000e+00	1.827016e+00	8.000000e+00	4.172982e-01
1.000000000000000e+01	1.813330e+00	1.000000e+01	4.184956e-01
1.200000000000000e+01	1.805343e+00	1.200000e+01	4.194413e-01
1.400000000000000e+01	1.800088e+00	1.400000e+01	4.199856e-01
1.600000000000000e+01	1.796370e+00	1.600000e+01	4.203612e-01
1.800000000000000e+01	1.793601e+00	1.800000e+01	4.206392e-01
2.000000000000000e+01	1.791458e+00	2.000000e+01	4.208539e-01
2.200000000000000e+01	1.789751e+00	2.200000e+01	4.210247e-01
2.400000000000000e+01	1.788359e+00	2.400000e+01	4.211641e-01
2.600000000000000e+01	1.787201e+00	2.600000e+01	4.212798e-01
2.800000000000000e+01	1.786224e+00	2.800000e+01	4.213775e-01
3.000000000000000e+01	1.785388e+00	3.000000e+01	4.214611e-01
Step Information: Vdd=8  (Step: 5/16)
0.000000000000000e+00	8.000000e+00	0.000000e+00	1.079972e-11
2.000000000000000e+00	7.503788e+00	2.000000e+00	4.963108e-02
4.000000000000000e+00	2.672842e+00	4.000000e+00	5.327098e-01
6.000000000000000e+00	2.483070e+00	6.000000e+00	5.516441e-01
8.000000000000000e+00	2.439431e+00	8.000000e+00	5.560560e-01
1.000000000000000e+01	2.419569e+00	1.000000e+01	5.576177e-01
1.200000000000000e+01	2.408248e+00	1.200000e+01	5.591203e-01
1.400000000000000e+01	2.400883e+00	1.400000e+01	5.598999e-01
1.600000000000000e+01	2.395715e+00	1.600000e+01	5.604249e-01
1.800000000000000e+01	2.391889e+00	1.800000e+01	5.608098e-01
2.000000000000000e+01	2.388941e+00	2.000000e+01	5.611053e-01
2.200000000000000e+01	2.386600e+00	2.200000e+01	5.613397e-01
2.400000000000000e+01	2.384696e+00	2.400000e+01	5.615302e-01
2.600000000000000e+01	2.383118e+00	2.600000e+01	5.616881e-01
2.800000000000000e+01	2.381788e+00	2.800000e+01	5.618212e-01
3.000000000000000e+01	2.380651e+00	3.000000e+01	5.619348e-01
Step Information: Vdd=10  (Step: 6/16)
0.000000000000000e+00	1.000000e+01	0.000000e+00	1.279931e-11
2.000000000000000e+00	9.503788e+00	2.000000e+00	4.963108e-02
4.000000000000000e+00	3.499269e+00	4.000000e+00	6.500713e-01
6.000000000000000e+00	3.116716e+00	6.000000e+00	6.880779e-01
8.000000000000000e+00	3.054011e+00	8.000000e+00	6.945986e-01
1.000000000000000e+01	3.026952e+00	1.000000e+01	6.973048e-01
1.200000000000000e+01	3.011796e+00	1.200000e+01	6.987138e-01
1.400000000000000e+01	3.002107e+00	1.400000e+01	6.997668e-01
1.600000000000000e+01	2.995366e+00	1.600000e+01	7.004569e-01
1.800000000000000e+01	2.990405e+00	1.800000e+01	7.009571e-01
2.000000000000000e+01	2.986601e+00	2.000000e+01	7.013389e-01
2.200000000000000e+01	2.983591e+00	2.200000e+01	7.016404e-01
2.400000000000000e+01	2.981150e+00	2.400000e+01	7.018847e-01
2.600000000000000e+01	2.979131e+00	2.600000e+01	7.020868e-01
2.800000000000000e+01	2.977432e+00	2.800000e+01	7.022567e-01
3.000000000000000e+01	2.975984e+00	3.000000e+01	7.024016e-01
Step Information: Vdd=12  (Step: 7/16)
0.000000000000000e+00	1.200000e+01	0.000000e+00	1.479948e-11
2.000000000000000e+00	1.150379e+01	2.000000e+00	4.963108e-02
4.000000000000000e+00	5.163238e+00	4.000000e+00	6.837291e-01
6.000000000000000e+00	3.758920e+00	6.000000e+00	8.238739e-01
8.000000000000000e+00	3.671129e+00	8.000000e+00	8.328870e-01
1.000000000000000e+01	3.635500e+00	1.000000e+01	8.364500e-01
1.200000000000000e+01	3.616043e+00	1.200000e+01	8.381988e-01
1.400000000000000e+01	3.603789e+00	1.400000e+01	8.395820e-01
1.600000000000000e+01	3.595340e+00	1.600000e+01	8.404551e-01
1.800000000000000e+01	3.589161e+00	1.800000e+01	8.410800e-01
2.000000000000000e+01	3.584446e+00	2.000000e+01	8.415537e-01
2.200000000000000e+01	3.580729e+00	2.200000e+01	8.419263e-01
2.400000000000000e+01	3.577724e+00	2.400000e+01	8.422272e-01
2.600000000000000e+01	3.575243e+00	2.600000e+01	8.424755e-01
2.800000000000000e+01	3.573161e+00	2.800000e+01	8.426838e-01
3.000000000000000e+01	3.571388e+00	3.000000e+01	8.428611e-01
Step Information: Vdd=14  (Step: 8/16)
0.000000000000000e+00	1.400000e+01	0.000000e+00	1.679907e-11
2.000000000000000e+00	1.350379e+01	2.000000e+00	4.963108e-02
4.000000000000000e+00	7.163238e+00	4.000000e+00	6.837291e-01
6.000000000000000e+00	4.412955e+00	6.000000e+00	9.586992e-01
8.000000000000000e+00	4.291128e+00	8.000000e+00	9.700631e-01
1.000000000000000e+01	4.245404e+00	1.000000e+01	9.754595e-01
1.200000000000000e+01	4.221054e+00	1.200000e+01	9.775508e-01
1.400000000000000e+01	4.205965e+00	1.400000e+01	9.793389e-01
1.600000000000000e+01	4.195658e+00	1.600000e+01	9.804170e-01
1.800000000000000e+01	4.188171e+00	1.800000e+01	9.811769e-01
2.000000000000000e+01	4.182486e+00	2.000000e+01	9.817490e-01
2.200000000000000e+01	4.178021e+00	2.200000e+01	9.821967e-01
2.400000000000000e+01	4.174422e+00	2.400000e+01	9.825572e-01
2.600000000000000e+01	4.171459e+00	2.600000e+01	9.828538e-01
2.800000000000000e+01	4.168976e+00	2.800000e+01	9.831022e-01
3.000000000000000e+01	4.166867e+00	3.000000e+01	9.833133e-01
Step Information: Vdd=16  (Step: 9/16)
0.000000000000000e+00	1.600000e+01	0.000000e+00	1.879925e-11
2.000000000000000e+00	1.550379e+01	2.000000e+00	4.963108e-02
4.000000000000000e+00	9.163239e+00	4.000000e+00	6.837291e-01
6.000000000000000e+00	5.084139e+00	6.000000e+00	1.091562e+00
8.000000000000000e+00	4.914997e+00	8.000000e+00	1.108500e+00
1.000000000000000e+01	4.856839e+00	1.000000e+01	1.114315e+00
1.200000000000000e+01	4.826896e+00	1.200000e+01	1.116711e+00
1.400000000000000e+01	4.808671e+00	1.400000e+01	1.119030e+00
1.600000000000000e+01	4.796341e+00	1.600000e+01	1.120340e+00
1.800000000000000e+01	4.787447e+00	1.800000e+01	1.121246e+00
2.000000000000000e+01	4.780729e+00	2.000000e+01	1.121924e+00
2.200000000000000e+01	4.775474e+00	2.200000e+01	1.122451e+00
2.400000000000000e+01	4.771250e+00	2.400000e+01	1.122874e+00
2.600000000000000e+01	4.767781e+00	2.600000e+01	1.123222e+00
2.800000000000000e+01	4.764881e+00	2.800000e+01	1.123512e+00
3.000000000000000e+01	4.762421e+00	3.000000e+01	1.123758e+00
Step Information: Vdd=18  (Step: 10/16)
0.000000000000000e+00	1.800000e+01	0.000000e+00	2.079883e-11
2.000000000000000e+00	1.750379e+01	2.000000e+00	4.963108e-02
4.000000000000000e+00	1.116324e+01	4.000000e+00	6.837291e-01
6.000000000000000e+00	5.783003e+00	6.000000e+00	1.222252e+00
8.000000000000000e+00	5.543138e+00	8.000000e+00	1.245686e+00
1.000000000000000e+01	5.470013e+00	1.000000e+01	1.252994e+00
1.200000000000000e+01	5.433649e+00	1.200000e+01	1.255618e+00
1.400000000000000e+01	5.411950e+00	1.400000e+01	1.258643e+00
1.600000000000000e+01	5.397414e+00	1.600000e+01	1.260220e+00
1.800000000000000e+01	5.387006e+00	1.800000e+01	1.261286e+00
2.000000000000000e+01	5.379185e+00	2.000000e+01	1.262076e+00
2.200000000000000e+01	5.373093e+00	2.200000e+01	1.262689e+00
2.400000000000000e+01	5.368212e+00	2.400000e+01	1.263178e+00
2.600000000000000e+01	5.364213e+00	2.600000e+01	1.263578e+00
2.800000000000000e+01	5.360878e+00	2.800000e+01	1.263912e+00
3.000000000000000e+01	5.358054e+00	3.000000e+01	1.264194e+00
Step Information: Vdd=20  (Step: 11/16)
0.000000000000000e+00	2.000000e+01	0.000000e+00	2.279783e-11
2.000000000000000e+00	1.950379e+01	2.000000e+00	4.963108e-02
4.000000000000000e+00	1.316324e+01	4.000000e+00	6.837291e-01
6.000000000000000e+00	6.532129e+00	6.000000e+00	1.346684e+00
8.000000000000000e+00	6.176733e+00	8.000000e+00	1.382322e+00
1.000000000000000e+01	6.085176e+00	1.000000e+01	1.391454e+00
1.200000000000000e+01	6.041550e+00	1.200000e+01	1.395845e+00
1.400000000000000e+01	6.015847e+00	1.400000e+01	1.398174e+00
1.600000000000000e+01	5.998903e+00	1.600000e+01	1.400052e+00
1.800000000000000e+01	5.986863e+00	1.800000e+01	1.401296e+00
2.000000000000000e+01	5.977866e+00	2.000000e+01	1.402206e+00
2.200000000000000e+01	5.970886e+00	2.200000e+01	1.402908e+00
2.400000000000000e+01	5.965313e+00	2.400000e+01	1.403467e+00
2.600000000000000e+01	5.960761e+00	2.600000e+01	1.403923e+00
2.800000000000000e+01	5.956971e+00	2.800000e+01	1.404302e+00
3.000000000000000e+01	5.953767e+00	3.000000e+01	1.404623e+00
Step Information: Vdd=22  (Step: 12/16)
0.000000000000000e+00	2.200000e+01	0.000000e+00	2.479801e-11
2.000000000000000e+00	2.150379e+01	2.000000e+00	4.963108e-02
4.000000000000000e+00	1.516324e+01	4.000000e+00	6.837291e-01
6.000000000000000e+00	7.416227e+00	6.000000e+00	1.458103e+00
8.000000000000000e+00	6.817239e+00	8.000000e+00	1.518271e+00
1.000000000000000e+01	6.702599e+00	1.000000e+01	1.529417e+00
1.200000000000000e+01	6.650495e+00	1.200000e+01	1.534950e+00
1.400000000000000e+01	6.620412e+00	1.400000e+01	1.537594e+00
1.600000000000000e+01	6.600835e+00	1.600000e+01	1.539833e+00
1.800000000000000e+01	6.587034e+00	1.800000e+01	1.541271e+00
2.000000000000000e+01	6.576781e+00	2.000000e+01	1.542312e+00
2.200000000000000e+01	6.568862e+00	2.200000e+01	1.543110e+00
2.400000000000000e+01	6.562560e+00	2.400000e+01	1.543742e+00
2.600000000000000e+01	6.557425e+00	2.600000e+01	1.544256e+00
2.800000000000000e+01	6.553162e+00	2.800000e+01	1.544683e+00
3.000000000000000e+01	6.549563e+00	3.000000e+01	1.545043e+00
Step Information: Vdd=24  (Step: 13/16)
0.000000000000000e+00	2.400000e+01	0.000000e+00	2.679818e-11
2.000000000000000e+00	2.350379e+01	2.000000e+00	4.963108e-02
4.000000000000000e+00	1.716324e+01	4.000000e+00	6.837291e-01
6.000000000000000e+00	9.135129e+00	6.000000e+00	1.486645e+00
8.000000000000000e+00	7.466739e+00	8.000000e+00	1.653325e+00
1.000000000000000e+01	7.322769e+00	1.000000e+01	1.667721e+00
1.200000000000000e+01	7.260700e+00	1.200000e+01	1.673930e+00
1.400000000000000e+01	7.225702e+00	1.400000e+01	1.676878e+00
1.600000000000000e+01	7.203242e+00	1.600000e+01	1.679557e+00
1.800000000000000e+01	7.187540e+00	1.800000e+01	1.681212e+00
2.000000000000000e+01	7.175944e+00	2.000000e+01	1.682393e+00
2.200000000000000e+01	7.167028e+00	2.200000e+01	1.683292e+00
2.400000000000000e+01	7.159958e+00	2.400000e+01	1.684002e+00
2.600000000000000e+01	7.154213e+00	2.600000e+01	1.684577e+00
2.800000000000000e+01	7.149454e+00	2.800000e+01	1.685054e+00
3.000000000000000e+01	7.145445e+00	3.000000e+01	1.685455e+00
Step Information: Vdd=26  (Step: 14/16)
0.000000000000000e+00	2.600000e+01	0.000000e+00	2.879836e-11
2.000000000000000e+00	2.550379e+01	2.000000e+00	4.963108e-02
4.000000000000000e+00	1.916324e+01	4.000000e+00	6.837291e-01
6.000000000000000e+00	1.113513e+01	6.000000e+00	1.486645e+00
8.000000000000000e+00	8.128366e+00	8.000000e+00	1.787163e+00
1.000000000000000e+01	7.946029e+00	1.000000e+01	1.805396e+00
1.200000000000000e+01	7.872312e+00	1.200000e+01	1.812768e+00
1.400000000000000e+01	7.831779e+00	1.400000e+01	1.815993e+00
1.600000000000000e+01	7.806157e+00	1.600000e+01	1.819217e+00
1.800000000000000e+01	7.788399e+00	1.800000e+01	1.821114e+00
2.000000000000000e+01	7.775366e+00	2.000000e+01	1.822447e+00
2.200000000000000e+01	7.765393e+00	2.200000e+01	1.823454e+00
2.400000000000000e+01	7.757513e+00	2.400000e+01	1.824245e+00
2.600000000000000e+01	7.751129e+00	2.600000e+01	1.824885e+00
2.800000000000000e+01	7.745852e+00	2.800000e+01	1.825414e+00
3.000000000000000e+01	7.741416e+00	3.000000e+01	1.825858e+00
Step Information: Vdd=28  (Step: 15/16)
0.000000000000000e+00	2.800000e+01	0.000000e+00	3.079735e-11
2.000000000000000e+00	2.750379e+01	2.000000e+00	4.963108e-02
4.000000000000000e+00	2.116324e+01	4.000000e+00	6.837291e-01
6.000000000000000e+00	1.313513e+01	6.000000e+00	1.486645e+00
8.000000000000000e+00	8.807156e+00	8.000000e+00	1.919282e+00
1.000000000000000e+01	8.573004e+00	1.000000e+01	1.942699e+00
1.200000000000000e+01	8.485505e+00	1.200000e+01	1.951447e+00
1.400000000000000e+01	8.438711e+00	1.400000e+01	1.954882e+00
1.600000000000000e+01	8.409618e+00	1.600000e+01	1.958802e+00
1.800000000000000e+01	8.389633e+00	1.800000e+01	1.960974e+00
2.000000000000000e+01	8.375062e+00	2.000000e+01	1.962472e+00
2.200000000000000e+01	8.363966e+00	2.200000e+01	1.963594e+00
2.400000000000000e+01	8.355231e+00	2.400000e+01	1.964473e+00
2.600000000000000e+01	8.348176e+00	2.600000e+01	1.965180e+00
2.800000000000000e+01	8.342358e+00	2.800000e+01	1.965763e+00
3.000000000000000e+01	8.337477e+00	3.000000e+01	1.966252e+00
Step Information: Vdd=30  (Step: 16/16)
0.000000000000000e+00	3.000000e+01	0.000000e+00	3.279753e-11
2.000000000000000e+00	2.950379e+01	2.000000e+00	4.963108e-02
4.000000000000000e+00	2.316324e+01	4.000000e+00	6.837291e-01
6.000000000000000e+00	1.513513e+01	6.000000e+00	1.486645e+00
8.000000000000000e+00	9.512043e+00	8.000000e+00	2.048795e+00
1.000000000000000e+01	9.204446e+00	1.000000e+01	2.079555e+00
1.200000000000000e+01	9.100482e+00	1.200000e+01	2.089944e+00
1.400000000000000e+01	9.046574e+00	1.400000e+01	2.093457e+00
1.600000000000000e+01	9.013666e+00	1.600000e+01	2.098301e+00
1.800000000000000e+01	8.991267e+00	1.800000e+01	2.100790e+00
2.000000000000000e+01	8.975047e+00	2.000000e+01	2.102467e+00
2.200000000000000e+01	8.962757e+00	2.200000e+01	2.103713e+00
2.400000000000000e+01	8.953120e+00	2.400000e+01	2.104683e+00
2.600000000000000e+01	8.945360e+00	2.600000e+01	2.105461e+00
2.800000000000000e+01	8.938976e+00	2.800000e+01	2.106101e+00
3.000000000000000e+01	8.933632e+00	3.000000e+01	2.106636e+00
